time	V(N002)*I(R2)	V(n001)	V(n002)
Step Information: R=120  (Run: 1/10)
0.000000000000000e+000	0.000000e+000	0.000000e+000	0.000000e+000
2.000000000000000e-005	9.566327e-003	1.000000e+001	1.071429e+000
9.995000000000154e-004	9.566327e-003	1.000000e+001	1.071429e+000
1.000000000000000e-003	9.566327e-003	1.000000e+001	1.071429e+000
Step Information: R=220  (Run: 2/10)
0.000000000000000e+000	0.000000e+000	0.000000e+000	0.000000e+000
2.000000000000000e-005	1.478097e-002	1.000000e+001	1.803279e+000
9.995000000000154e-004	1.478097e-002	1.000000e+001	1.803279e+000
1.000000000000000e-003	1.478097e-002	1.000000e+001	1.803279e+000
Step Information: R=330  (Run: 3/10)
0.000000000000000e+000	0.000000e+000	0.000000e+000	0.000000e+000
2.000000000000000e-005	1.865566e-002	1.000000e+001	2.481203e+000
9.995000000000154e-004	1.865566e-002	1.000000e+001	2.481203e+000
1.000000000000000e-003	1.865566e-002	1.000000e+001	2.481203e+000
Step Information: R=500  (Run: 4/10)
0.000000000000000e+000	0.000000e+000	0.000000e+000	0.000000e+000
2.000000000000000e-005	2.222222e-002	1.000000e+001	3.333333e+000
9.995000000000154e-004	2.222222e-002	1.000000e+001	3.333333e+000
1.000000000000000e-003	2.222222e-002	1.000000e+001	3.333333e+000
Step Information: R=1K  (Run: 5/10)
0.000000000000000e+000	0.000000e+000	0.000000e+000	0.000000e+000
2.000000000000000e-005	2.500000e-002	1.000000e+001	5.000000e+000
9.995000000000154e-004	2.500000e-002	1.000000e+001	5.000000e+000
1.000000000000000e-003	2.500000e-002	1.000000e+001	5.000000e+000
Step Information: R=1.5K  (Run: 6/10)
0.000000000000000e+000	0.000000e+000	0.000000e+000	0.000000e+000
2.000000000000000e-005	2.400000e-002	1.000000e+001	6.000000e+000
9.995000000000154e-004	2.400000e-002	1.000000e+001	6.000000e+000
1.000000000000000e-003	2.400000e-002	1.000000e+001	6.000000e+000
Step Information: R=2.5K  (Run: 7/10)
0.000000000000000e+000	0.000000e+000	0.000000e+000	0.000000e+000
2.000000000000000e-005	2.040816e-002	1.000000e+001	7.142857e+000
9.995000000000154e-004	2.040816e-002	1.000000e+001	7.142857e+000
1.000000000000000e-003	2.040816e-002	1.000000e+001	7.142857e+000
Step Information: R=3.3K  (Run: 8/10)
0.000000000000000e+000	0.000000e+000	0.000000e+000	0.000000e+000
2.000000000000000e-005	1.784748e-002	1.000000e+001	7.674418e+000
9.995000000000154e-004	1.784748e-002	1.000000e+001	7.674418e+000
1.000000000000000e-003	1.784748e-002	1.000000e+001	7.674418e+000
Step Information: R=4.7K  (Run: 9/10)
0.000000000000000e+000	0.000000e+000	0.000000e+000	0.000000e+000
2.000000000000000e-005	1.446599e-002	1.000000e+001	8.245614e+000
9.995000000000154e-004	1.446599e-002	1.000000e+001	8.245614e+000
1.000000000000000e-003	1.446599e-002	1.000000e+001	8.245614e+000
Step Information: R=10K  (Run: 10/10)
0.000000000000000e+000	0.000000e+000	0.000000e+000	0.000000e+000
2.000000000000000e-005	8.264463e-003	1.000000e+001	9.090909e+000
9.995000000000154e-004	8.264463e-003	1.000000e+001	9.090909e+000
1.000000000000000e-003	8.264463e-003	1.000000e+001	9.090909e+000
